
T0E24 000:062 SEGGER J-Link V6.14b Log File (0000ms, 0026ms total)
T0E24 000:062 DLL Compiled: Mar  9 2017 08:46:04 (0000ms, 0026ms total)
T0E24 000:062 Logging started @ 2017-05-10 15:40 (0000ms, 0026ms total)
T0E24 000:062 JLINK_SetWarnOutHandler(...) (0000ms, 0026ms total)
T0E24 000:062 JLINK_OpenEx(...)
Firmware: J-Link ARM-OB STM32 compiled Aug 22 2012 19:52:04
Hardware: V7.00
S/N: 20090928
Feature(s): RDI,FlashDL,FlashBP,JFlash,GDBFullWEBSRV Webserver running on local port 19080 (0022ms, 0048ms total)
T0E24 000:062   returns O.K. (0022ms, 0048ms total)
T0E24 000:084 JLINK_SetErrorOutHandler(...) (0000ms, 0048ms total)
T0E24 000:084 JLINK_ExecCommand("ProjectFile = "F:\Documents\Github\IMU\MDK_Prj\JLinkSettings.ini"", ...). C:\Program Files (x86)\SEGGER\JLink_V614b\JLinkDevices.xml evaluated successfully.  returns 0x00 (0106ms, 0154ms total)
T0E24 000:199 JLINK_ExecCommand("Device = STM32F407VETx", ...). Device "STM32F407VE" selected.  returns 0x00 (0008ms, 0162ms total)
T0E24 000:207 JLINK_ExecCommand("DisableConnectionTimeout", ...).   returns 0x01 (0000ms, 0162ms total)
T0E24 000:207 JLINK_GetHardwareVersion()  returns 0x11170 (0000ms, 0162ms total)
T0E24 000:207 JLINK_GetDLLVersion()  returns 61402 (0000ms, 0162ms total)
T0E24 000:207 JLINK_GetFirmwareString(...) (0000ms, 0162ms total)
T0E24 000:228 JLINK_GetDLLVersion()  returns 61402 (0000ms, 0162ms total)
T0E24 000:228 JLINK_GetCompileDateTime() (0000ms, 0162ms total)
T0E24 000:236 JLINK_GetFirmwareString(...) (0000ms, 0162ms total)
T0E24 000:250 JLINK_GetHardwareVersion()  returns 0x11170 (0000ms, 0162ms total)
T0E24 000:276 JLINK_TIF_Select(JLINKARM_TIF_SWD)  returns 0x00 (0000ms, 0162ms total)
T0E24 000:276 JLINK_SetSpeed(50000) (0001ms, 0163ms total)
T0E24 000:277 JLINK_GetId() >0x108 TIF>Found SWD-DP with ID 0x2BA01477 >0x0D TIF> >0x28 TIF> >0x0D TIF> >0x28 TIF> >0x0D TIF> >0x28 TIF> >0x0D TIF> >0x28 TIF> >0x0D TIF> >0x21 TIF> >0x0D TIF> >0x28 TIF> >0x0D TIF> >0x28 TIF> >0x0D TIF> >0x28 TIF> >0x0D TIF> >0x21 TIF> >0x0D TIF> >0x21 TIF> >0x0D TIF> >0x28 TIF> >0x0D TIF> >0x21 TIF> >0x0D TIF> >0x21 TIF> >0x0D TIF> >0x28 TIF> >0x0D TIF> >0x21 TIF> >0x0D TIF> >0x21 TIF> >0x0D TIF> >0x28 TIF> >0x0D TIF> >0x21 TIF> >0x0D TIF> >0x21 TIF> >0x0D TIF>
 >0x28 TIF> >0x0D TIF> >0x21 TIF> >0x0D TIF> >0x21 TIF> >0x0D TIF> >0x28 TIF> >0x0D TIF> >0x21 TIF> >0x0D TIF> >0x21 TIF> >0x108 TIF>Found SWD-DP with ID 0x2BA01477 >0x0D TIF> >0x28 TIF> >0x0D TIF> >0x28 TIF> >0x0D TIF> >0x28 TIF> >0x0D TIF> >0x28 TIF> >0x0D TIF> >0x21 TIF> >0x0D TIF> >0x28 TIF> >0x0D TIF> >0x28 TIF> >0x0D TIF> >0x21 TIF> >0x0D TIF> >0x21 TIF> >0x0D TIF> >0x21 TIF>AP-IDR: 0x24770011, Type: AHB-APAHB-AP ROM: 0xE00FF000 (Base addr. of first ROM table) >0x0D TIF> >0x28 TIF> >0x0D TIF>
 >0x28 TIF> >0x0D TIF> >0x28 TIF> >0x0D TIF> >0x21 TIF> >0x0D TIF> >0x21 TIF> >0x0D TIF> >0x28 TIF> >0x0D TIF> >0x21 TIF> >0x0D TIF> >0x21 TIF>Found Cortex-M4 r0p1, Little endian. -- CPU_ReadMem(4 bytes @ 0xE000EDF0) -- CPU_ReadMem(4 bytes @ 0xE0002000)FPUnit: 6 code (BP) slots and 2 literal slots -- CPU_ReadMem(4 bytes @ 0xE000EDFC) -- CPU_ReadMem(4 bytes @ 0xE0001000) -- CPU_WriteMem(4 bytes @ 0xE0001000) -- CPU_ReadMem(4 bytes @ 0xE000ED88) -- CPU_WriteMem(4 bytes @ 0xE000ED88)
 -- CPU_ReadMem(4 bytes @ 0xE000ED88) -- CPU_WriteMem(4 bytes @ 0xE000ED88)CoreSight components:ROMTbl 0 @ E00FF000 -- CPU_ReadMem(16 bytes @ 0xE00FF000) -- CPU_ReadMem(16 bytes @ 0xE000EFF0) -- CPU_ReadMem(16 bytes @ 0xE000EFE0)ROMTbl 0 [0]: FFF0F000, CID: B105E00D, PID: 000BB00C SCS -- CPU_ReadMem(16 bytes @ 0xE0001FF0) -- CPU_ReadMem(16 bytes @ 0xE0001FE0)ROMTbl 0 [1]: FFF02000, CID: B105E00D, PID: 003BB002 DWT -- CPU_ReadMem(16 bytes @ 0xE0002FF0) -- CPU_ReadMem(16 bytes @ 0xE0002FE0)
ROMTbl 0 [2]: FFF03000, CID: B105E00D, PID: 002BB003 FPB -- CPU_ReadMem(16 bytes @ 0xE0000FF0) -- CPU_ReadMem(16 bytes @ 0xE0000FE0)ROMTbl 0 [3]: FFF01000, CID: B105E00D, PID: 003BB001 ITM -- CPU_ReadMem(16 bytes @ 0xE00FF010) -- CPU_ReadMem(16 bytes @ 0xE0040FF0) -- CPU_ReadMem(16 bytes @ 0xE0040FE0)ROMTbl 0 [4]: FFF41000, CID: B105900D, PID: 000BB9A1 TPIU -- CPU_ReadMem(16 bytes @ 0xE0041FF0) -- CPU_ReadMem(16 bytes @ 0xE0041FE0)ROMTbl 0 [5]: FFF42000, CID: B105900D, PID: 000BB925 ETM >0x0D TIF>
 >0x21 TIF>  returns 0x2BA01477 (0185ms, 0348ms total)
T0E24 000:462 JLINK_GetDLLVersion()  returns 61402 (0000ms, 0348ms total)
T0E24 000:462 JLINK_CORE_GetFound()  returns 0xE0000FF (0000ms, 0348ms total)
T0E24 000:462 JLINK_GetDebugInfo(0x100 = JLINKARM_ROM_TABLE_ADDR_INDEX) -- Value=0xE00FF000  returns 0x00 (0000ms, 0348ms total)
T0E24 000:469 JLINK_GetDebugInfo(0x100 = JLINKARM_ROM_TABLE_ADDR_INDEX) -- Value=0xE00FF000  returns 0x00 (0000ms, 0348ms total)
T0E24 000:469 JLINK_GetDebugInfo(0x101 = JLINKARM_DEBUG_INFO_ETM_ADDR_INDEX) -- Value=0xE0041000  returns 0x00 (0000ms, 0348ms total)
T0E24 000:469 JLINK_GetDebugInfo(0x102 = JLINKARM_DEBUG_INFO_MTB_ADDR_INDEX) -- Value=0x00000000  returns 0x00 (0000ms, 0348ms total)
T0E24 000:469 JLINK_GetDebugInfo(0x103 = JLINKARM_DEBUG_INFO_TPIU_ADDR_INDEX) -- Value=0xE0040000  returns 0x00 (0000ms, 0348ms total)
T0E24 000:469 JLINK_GetDebugInfo(0x104 = JLINKARM_DEBUG_INFO_ITM_ADDR_INDEX) -- Value=0xE0000000  returns 0x00 (0000ms, 0348ms total)
T0E24 000:469 JLINK_GetDebugInfo(0x105 = JLINKARM_DEBUG_INFO_DWT_ADDR_INDEX) -- Value=0xE0001000  returns 0x00 (0000ms, 0348ms total)
T0E24 000:469 JLINK_GetDebugInfo(0x106 = JLINKARM_DEBUG_INFO_FPB_ADDR_INDEX) -- Value=0xE0002000  returns 0x00 (0000ms, 0348ms total)
T0E24 000:469 JLINK_GetDebugInfo(0x107 = JLINKARM_DEBUG_INFO_NVIC_ADDR_INDEX) -- Value=0xE000E000  returns 0x00 (0000ms, 0348ms total)
T0E24 000:469 JLINK_GetDebugInfo(0x10C = JLINKARM_DEBUG_INFO_DBG_ADDR_INDEX) -- Value=0xE000EDF0  returns 0x00 (0000ms, 0348ms total)
T0E24 000:469 JLINK_ReadMemU32(0xE000EF40, 0x0001 Items, ...) -- CPU is running -- CPU_ReadMem(4 bytes @ 0xE000EF40) - Data: 21 00 11 10  returns 0x01 (0001ms, 0349ms total)
T0E24 000:470 JLINK_ReadMemU32(0xE000EF44, 0x0001 Items, ...) -- CPU is running -- CPU_ReadMem(4 bytes @ 0xE000EF44) - Data: 11 00 00 11  returns 0x01 (0000ms, 0349ms total)
T0E24 000:470 JLINK_ReadMemU32(0xE000ED00, 0x0001 Items, ...) -- CPU is running -- CPU_ReadMem(4 bytes @ 0xE000ED00) - Data: 41 C2 0F 41  returns 0x01 (0001ms, 0350ms total)
T0E24 000:471 JLINK_SetResetType(JLINKARM_CM3_RESET_TYPE_NORMAL)  returns JLINKARM_CM3_RESET_TYPE_NORMAL (0000ms, 0350ms total)
T0E24 000:471 JLINK_Reset() -- CPU is running -- CPU_WriteMem(4 bytes @ 0xE000EDF0) -- CPU is running -- CPU_WriteMem(4 bytes @ 0xE000EDFC) >0x35 TIF> -- CPU is running -- CPU_WriteMem(4 bytes @ 0xE000ED0C) >0x0D TIF> >0x28 TIF> -- CPU is running -- CPU_ReadMem(4 bytes @ 0xE000EDF0) -- CPU is running -- CPU_ReadMem(4 bytes @ 0xE000EDF0) -- CPU is running -- CPU_WriteMem(4 bytes @ 0xE000EDF0) -- CPU is running -- CPU_WriteMem(4 bytes @ 0xE000EDFC) -- CPU is running -- CPU_ReadMem(4 bytes @ 0xE000EDF0)
 -- CPU_WriteMem(4 bytes @ 0xE0002000) -- CPU_ReadMem(4 bytes @ 0xE000EDFC) -- CPU_ReadMem(4 bytes @ 0xE0001000) (0067ms, 0417ms total)
T0E24 000:538 JLINK_Halt()  returns 0x00 (0000ms, 0417ms total)
T0E24 000:538 JLINK_IsHalted()  returns TRUE (0000ms, 0417ms total)
T0E24 000:538 JLINK_ReadMemU32(0xE000EDF0, 0x0001 Items, ...) -- CPU_ReadMem(4 bytes @ 0xE000EDF0) - Data: 03 00 03 00  returns 0x01 (0001ms, 0418ms total)
T0E24 000:539 JLINK_WriteU32(0xE000EDF0, 0xA05F0003) -- CPU_WriteMem(4 bytes @ 0xE000EDF0)  returns 0x00 (0000ms, 0418ms total)
T0E24 000:539 JLINK_WriteU32(0xE000EDFC, 0x01000000) -- CPU_WriteMem(4 bytes @ 0xE000EDFC)  returns 0x00 (0001ms, 0419ms total)
T0E24 000:638 JLINK_GetHWStatus(...)  returns 0x00 (0001ms, 0420ms total)
T0E24 000:686 JLINK_GetNumBPUnits(Type = 0xFFFFFF00)  returns 0x06 (0000ms, 0420ms total)
T0E24 000:686 JLINK_GetNumBPUnits(Type = 0xF0)  returns 0x2000 (0000ms, 0420ms total)
T0E24 000:686 JLINK_GetNumWPUnits()  returns 0x04 (0000ms, 0420ms total)
T0E24 000:717 JLINK_GetSpeed()  returns 0xFA0 (0000ms, 0420ms total)
T0E24 000:738 JLINK_ReadMemU32(0xE000E004, 0x0001 Items, ...) -- CPU_ReadMem(4 bytes @ 0xE000E004) - Data: 02 00 00 00  returns 0x01 (0000ms, 0420ms total)
T0E24 000:738 JLINK_ReadMemU32(0xE000E004, 0x0001 Items, ...) -- CPU_ReadMem(4 bytes @ 0xE000E004) - Data: 02 00 00 00  returns 0x01 (0000ms, 0420ms total)
T0E24 000:739 JLINK_WriteMem(0xE0001000, 0x001C Bytes, ...) - Data: 01 00 00 00 00 00 00 00 00 00 00 00 00 00 00 00 ... -- CPU_WriteMem(28 bytes @ 0xE0001000)  returns 0x1C (0001ms, 0421ms total)
T0E24 000:740 JLINK_ReadMem (0xE0001000, 0x001C Bytes, ...) -- CPU_ReadMem(28 bytes @ 0xE0001000) - Data: 01 00 00 40 00 00 00 00 00 00 00 00 00 00 00 00 ...  returns 0x00 (0000ms, 0421ms total)
T0E24 000:740 JLINK_Halt()  returns 0x00 (0000ms, 0421ms total)
T0E24 000:740 JLINK_IsHalted()  returns TRUE (0000ms, 0421ms total)
T0E24 000:744 JLINK_WriteMem(0x20000000, 0x0188 Bytes, ...) - Data: 00 BE 0A E0 0D 78 2D 06 68 40 08 24 40 00 00 D3 ... -- CPU_WriteMem(392 bytes @ 0x20000000)  returns 0x188 (0006ms, 0427ms total)
T0E24 000:750 JLINK_WriteReg(R0, 0x08000000)  returns 0x00 (0000ms, 0427ms total)
T0E24 000:750 JLINK_WriteReg(R1, 0x007A1200)  returns 0x00 (0000ms, 0427ms total)
T0E24 000:750 JLINK_WriteReg(R2, 0x00000001)  returns 0x00 (0000ms, 0427ms total)
T0E24 000:750 JLINK_WriteReg(R3, 0x00000000)  returns 0x00 (0000ms, 0427ms total)
T0E24 000:750 JLINK_WriteReg(R4, 0x00000000)  returns 0x00 (0000ms, 0427ms total)
T0E24 000:750 JLINK_WriteReg(R5, 0x00000000)  returns 0x00 (0000ms, 0427ms total)
T0E24 000:750 JLINK_WriteReg(R6, 0x00000000)  returns 0x00 (0000ms, 0427ms total)
T0E24 000:750 JLINK_WriteReg(R7, 0x00000000)  returns 0x00 (0000ms, 0427ms total)
T0E24 000:750 JLINK_WriteReg(R8, 0x00000000)  returns 0x00 (0000ms, 0427ms total)
T0E24 000:750 JLINK_WriteReg(R9, 0x20000184)  returns 0x00 (0000ms, 0427ms total)
T0E24 000:750 JLINK_WriteReg(R10, 0x00000000)  returns 0x00 (0000ms, 0427ms total)
T0E24 000:750 JLINK_WriteReg(R11, 0x00000000)  returns 0x00 (0000ms, 0427ms total)
T0E24 000:750 JLINK_WriteReg(R12, 0x00000000)  returns 0x00 (0000ms, 0427ms total)
T0E24 000:750 JLINK_WriteReg(R13 (SP), 0x20001000)  returns 0x00 (0000ms, 0427ms total)
T0E24 000:750 JLINK_WriteReg(R14, 0x20000001)  returns 0x00 (0000ms, 0427ms total)
T0E24 000:750 JLINK_WriteReg(R15 (PC), 0x2000005E)  returns 0x00 (0000ms, 0427ms total)
T0E24 000:750 JLINK_WriteReg(XPSR, 0x01000000)  returns 0x00 (0000ms, 0427ms total)
T0E24 000:750 JLINK_WriteReg(MSP, 0x20001000)  returns 0x00 (0000ms, 0427ms total)
T0E24 000:750 JLINK_WriteReg(PSP, 0x20001000)  returns 0x00 (0000ms, 0427ms total)
T0E24 000:750 JLINK_WriteReg(CFBP, 0x00000000)  returns 0x00 (0000ms, 0427ms total)
T0E24 000:750 JLINK_SetBPEx(Addr = 0x20000000, Type = 0xFFFFFFF2) -- CPU_ReadMem(2 bytes @ 0x20000000)  returns 0x00000001 (0001ms, 0428ms total)
T0E24 000:751 JLINK_Go() -- CPU_WriteMem(2 bytes @ 0x20000000) -- CPU_ReadMem(4 bytes @ 0xE0001000) -- CPU_WriteMem(4 bytes @ 0xE0002008) -- CPU_WriteMem(4 bytes @ 0xE000200C) -- CPU_WriteMem(4 bytes @ 0xE0002010) -- CPU_WriteMem(4 bytes @ 0xE0002014) -- CPU_WriteMem(4 bytes @ 0xE0002018) -- CPU_WriteMem(4 bytes @ 0xE000201C) -- CPU_WriteMem(4 bytes @ 0xE0001004) (0005ms, 0433ms total)
T0E24 000:756 JLINK_IsHalted() -- CPU_ReadMem(2 bytes @ 0x20000000)  returns TRUE (0004ms, 0437ms total)
T0E24 000:760 JLINK_ReadReg(R15 (PC))  returns 0x20000000 (0000ms, 0433ms total)
T0E24 000:760 JLINK_ClrBPEx(BPHandle = 0x00000001)  returns 0x00 (0000ms, 0433ms total)
T0E24 000:760 JLINK_ReadReg(R0)  returns 0x00000000 (0000ms, 0433ms total)
T0E24 000:761 JLINK_WriteReg(R0, 0x08000000)  returns 0x00 (0000ms, 0433ms total)
T0E24 000:761 JLINK_WriteReg(R1, 0x00004000)  returns 0x00 (0000ms, 0433ms total)
T0E24 000:761 JLINK_WriteReg(R2, 0x000000FF)  returns 0x00 (0000ms, 0433ms total)
T0E24 000:761 JLINK_WriteReg(R3, 0x00000000)  returns 0x00 (0000ms, 0433ms total)
T0E24 000:761 JLINK_WriteReg(R4, 0x00000000)  returns 0x00 (0000ms, 0433ms total)
T0E24 000:761 JLINK_WriteReg(R5, 0x00000000)  returns 0x00 (0000ms, 0433ms total)
T0E24 000:761 JLINK_WriteReg(R6, 0x00000000)  returns 0x00 (0000ms, 0433ms total)
T0E24 000:761 JLINK_WriteReg(R7, 0x00000000)  returns 0x00 (0000ms, 0433ms total)
T0E24 000:761 JLINK_WriteReg(R8, 0x00000000)  returns 0x00 (0000ms, 0433ms total)
T0E24 000:761 JLINK_WriteReg(R9, 0x20000184)  returns 0x00 (0000ms, 0433ms total)
T0E24 000:761 JLINK_WriteReg(R10, 0x00000000)  returns 0x00 (0000ms, 0433ms total)
T0E24 000:761 JLINK_WriteReg(R11, 0x00000000)  returns 0x00 (0000ms, 0433ms total)
T0E24 000:761 JLINK_WriteReg(R12, 0x00000000)  returns 0x00 (0000ms, 0433ms total)
T0E24 000:761 JLINK_WriteReg(R13 (SP), 0x20001000)  returns 0x00 (0000ms, 0433ms total)
T0E24 000:761 JLINK_WriteReg(R14, 0x20000001)  returns 0x00 (0000ms, 0433ms total)
T0E24 000:761 JLINK_WriteReg(R15 (PC), 0x20000020)  returns 0x00 (0000ms, 0433ms total)
T0E24 000:761 JLINK_WriteReg(XPSR, 0x01000000)  returns 0x00 (0000ms, 0433ms total)
T0E24 000:761 JLINK_WriteReg(MSP, 0x20001000)  returns 0x00 (0000ms, 0433ms total)
T0E24 000:761 JLINK_WriteReg(PSP, 0x20001000)  returns 0x00 (0000ms, 0433ms total)
T0E24 000:761 JLINK_WriteReg(CFBP, 0x00000000)  returns 0x00 (0000ms, 0433ms total)
T0E24 000:761 JLINK_SetBPEx(Addr = 0x20000000, Type = 0xFFFFFFF2)  returns 0x00000002 (0000ms, 0433ms total)
T0E24 000:761 JLINK_Go() -- CPU_ReadMem(4 bytes @ 0xE0001000) (0003ms, 0436ms total)
T0E24 000:764 JLINK_IsHalted() -- CPU_ReadMem(2 bytes @ 0x20000000)  returns TRUE (0004ms, 0440ms total)
T0E24 000:768 JLINK_ReadReg(R15 (PC))  returns 0x20000000 (0000ms, 0436ms total)
T0E24 000:768 JLINK_ClrBPEx(BPHandle = 0x00000002)  returns 0x00 (0000ms, 0436ms total)
T0E24 000:768 JLINK_ReadReg(R0)  returns 0x00000001 (0000ms, 0436ms total)
T0E24 000:768 JLINK_WriteReg(R0, 0x08000000)  returns 0x00 (0000ms, 0436ms total)
T0E24 000:768 JLINK_WriteReg(R1, 0x00004000)  returns 0x00 (0000ms, 0436ms total)
T0E24 000:768 JLINK_WriteReg(R2, 0x000000FF)  returns 0x00 (0000ms, 0436ms total)
T0E24 000:768 JLINK_WriteReg(R3, 0x00000000)  returns 0x00 (0000ms, 0436ms total)
T0E24 000:768 JLINK_WriteReg(R4, 0x00000000)  returns 0x00 (0000ms, 0436ms total)
T0E24 000:768 JLINK_WriteReg(R5, 0x00000000)  returns 0x00 (0000ms, 0436ms total)
T0E24 000:768 JLINK_WriteReg(R6, 0x00000000)  returns 0x00 (0000ms, 0436ms total)
T0E24 000:768 JLINK_WriteReg(R7, 0x00000000)  returns 0x00 (0000ms, 0436ms total)
T0E24 000:768 JLINK_WriteReg(R8, 0x00000000)  returns 0x00 (0000ms, 0436ms total)
T0E24 000:768 JLINK_WriteReg(R9, 0x20000184)  returns 0x00 (0000ms, 0436ms total)
T0E24 000:768 JLINK_WriteReg(R10, 0x00000000)  returns 0x00 (0000ms, 0436ms total)
T0E24 000:768 JLINK_WriteReg(R11, 0x00000000)  returns 0x00 (0000ms, 0436ms total)
T0E24 000:768 JLINK_WriteReg(R12, 0x00000000)  returns 0x00 (0000ms, 0436ms total)
T0E24 000:768 JLINK_WriteReg(R13 (SP), 0x20001000)  returns 0x00 (0000ms, 0436ms total)
T0E24 000:768 JLINK_WriteReg(R14, 0x20000001)  returns 0x00 (0000ms, 0436ms total)
T0E24 000:768 JLINK_WriteReg(R15 (PC), 0x200000C6)  returns 0x00 (0000ms, 0436ms total)
T0E24 000:768 JLINK_WriteReg(XPSR, 0x01000000)  returns 0x00 (0000ms, 0436ms total)
T0E24 000:768 JLINK_WriteReg(MSP, 0x20001000)  returns 0x00 (0000ms, 0436ms total)
T0E24 000:768 JLINK_WriteReg(PSP, 0x20001000)  returns 0x00 (0000ms, 0436ms total)
T0E24 000:768 JLINK_WriteReg(CFBP, 0x00000000)  returns 0x00 (0000ms, 0436ms total)
T0E24 000:768 JLINK_SetBPEx(Addr = 0x20000000, Type = 0xFFFFFFF2)  returns 0x00000003 (0000ms, 0436ms total)
T0E24 000:768 JLINK_Go() -- CPU_ReadMem(4 bytes @ 0xE0001000) (0002ms, 0438ms total)
T0E24 000:770 JLINK_IsHalted()  returns FALSE (0001ms, 0439ms total)
T0E24 000:906 JLINK_IsHalted()  returns FALSE (0000ms, 0438ms total)
T0E24 000:935 JLINK_IsHalted()  returns FALSE (0001ms, 0439ms total)
T0E24 000:938 JLINK_IsHalted()  returns FALSE (0000ms, 0438ms total)
T0E24 000:942 JLINK_IsHalted()  returns FALSE (0000ms, 0438ms total)
T0E24 000:944 JLINK_IsHalted()  returns FALSE (0000ms, 0438ms total)
T0E24 000:957 JLINK_IsHalted()  returns FALSE (0001ms, 0439ms total)
T0E24 000:960 JLINK_IsHalted()  returns FALSE (0000ms, 0438ms total)
T0E24 000:962 JLINK_IsHalted()  returns FALSE (0000ms, 0438ms total)
T0E24 000:966 JLINK_IsHalted()  returns FALSE (0001ms, 0439ms total)
T0E24 000:969 JLINK_IsHalted()  returns FALSE (0000ms, 0438ms total)
T0E24 000:973 JLINK_IsHalted()  returns FALSE (0000ms, 0438ms total)
T0E24 000:976 JLINK_IsHalted()  returns FALSE (0000ms, 0438ms total)
T0E24 000:978 JLINK_IsHalted()  returns FALSE (0001ms, 0439ms total)
T0E24 000:982 JLINK_IsHalted()  returns FALSE (0000ms, 0438ms total)
T0E24 000:984 JLINK_IsHalted()  returns FALSE (0001ms, 0439ms total)
T0E24 000:989 JLINK_IsHalted()  returns FALSE (0000ms, 0438ms total)
T0E24 000:991 JLINK_IsHalted()  returns FALSE (0000ms, 0438ms total)
T0E24 000:993 JLINK_IsHalted()  returns FALSE (0001ms, 0439ms total)
T0E24 000:998 JLINK_IsHalted()  returns FALSE (0000ms, 0438ms total)
T0E24 001:000 JLINK_IsHalted()  returns FALSE (0000ms, 0438ms total)
T0E24 001:002 JLINK_IsHalted()  returns FALSE (0000ms, 0438ms total)
T0E24 001:014 JLINK_IsHalted()  returns FALSE (0000ms, 0438ms total)
T0E24 001:016 JLINK_IsHalted()  returns FALSE (0000ms, 0438ms total)
T0E24 001:017 JLINK_IsHalted()  returns FALSE (0001ms, 0439ms total)
T0E24 001:021 JLINK_IsHalted()  returns FALSE (0001ms, 0439ms total)
T0E24 001:023 JLINK_IsHalted()  returns FALSE (0001ms, 0439ms total)
T0E24 001:029 JLINK_IsHalted()  returns FALSE (0001ms, 0439ms total)
T0E24 001:031 JLINK_IsHalted()  returns FALSE (0001ms, 0439ms total)
T0E24 001:034 JLINK_IsHalted()  returns FALSE (0000ms, 0438ms total)
T0E24 001:039 JLINK_IsHalted()  returns FALSE (0000ms, 0438ms total)
T0E24 001:041 JLINK_IsHalted()  returns FALSE (0000ms, 0438ms total)
T0E24 001:045 JLINK_IsHalted()  returns FALSE (0000ms, 0438ms total)
T0E24 001:047 JLINK_IsHalted()  returns FALSE (0001ms, 0439ms total)
T0E24 001:049 JLINK_IsHalted()  returns FALSE (0001ms, 0439ms total)
T0E24 001:062 JLINK_IsHalted()  returns FALSE (0001ms, 0439ms total)
T0E24 001:064 JLINK_IsHalted()  returns FALSE (0001ms, 0439ms total)
T0E24 001:066 JLINK_IsHalted()  returns FALSE (0001ms, 0439ms total)
T0E24 001:068 JLINK_IsHalted()  returns FALSE (0001ms, 0439ms total)
T0E24 001:070 JLINK_IsHalted()  returns FALSE (0000ms, 0438ms total)
T0E24 001:071 JLINK_IsHalted()  returns FALSE (0000ms, 0438ms total)
T0E24 001:073 JLINK_IsHalted()  returns FALSE (0001ms, 0439ms total)
T0E24 001:075 JLINK_IsHalted()  returns FALSE (0001ms, 0439ms total)
T0E24 001:077 JLINK_IsHalted()  returns FALSE (0000ms, 0438ms total)
T0E24 001:079 JLINK_IsHalted()  returns FALSE (0000ms, 0438ms total)
T0E24 001:081 JLINK_IsHalted()  returns FALSE (0000ms, 0438ms total)
T0E24 001:083 JLINK_IsHalted()  returns FALSE (0001ms, 0439ms total)
T0E24 001:085 JLINK_IsHalted()  returns FALSE (0001ms, 0439ms total)
T0E24 001:087 JLINK_IsHalted()  returns FALSE (0001ms, 0439ms total)
T0E24 001:089 JLINK_IsHalted()  returns FALSE (0001ms, 0439ms total)
T0E24 001:091 JLINK_IsHalted()  returns FALSE (0001ms, 0439ms total)
T0E24 001:093 JLINK_IsHalted()  returns FALSE (0001ms, 0439ms total)
T0E24 001:095 JLINK_IsHalted()  returns FALSE (0000ms, 0438ms total)
T0E24 001:097 JLINK_IsHalted()  returns FALSE (0000ms, 0438ms total)
T0E24 001:101 JLINK_IsHalted()  returns FALSE (0001ms, 0439ms total)
T0E24 001:103 JLINK_IsHalted()  returns FALSE (0001ms, 0439ms total)
T0E24 001:105 JLINK_IsHalted()  returns FALSE (0000ms, 0438ms total)
T0E24 001:106 JLINK_IsHalted()  returns FALSE (0001ms, 0439ms total)
T0E24 001:109 JLINK_IsHalted()  returns FALSE (0000ms, 0438ms total)
T0E24 001:111 JLINK_IsHalted()  returns FALSE (0000ms, 0438ms total)
T0E24 001:113 JLINK_IsHalted()  returns FALSE (0001ms, 0439ms total)
T0E24 001:115 JLINK_IsHalted()  returns FALSE (0001ms, 0439ms total)
T0E24 001:117 JLINK_IsHalted()  returns FALSE (0001ms, 0439ms total)
T0E24 001:119 JLINK_IsHalted()  returns FALSE (0001ms, 0439ms total)
T0E24 001:121 JLINK_IsHalted()  returns FALSE (0001ms, 0439ms total)
T0E24 001:123 JLINK_IsHalted()  returns FALSE (0001ms, 0439ms total)
T0E24 001:125 JLINK_IsHalted()  returns FALSE (0001ms, 0439ms total)
T0E24 001:128 JLINK_IsHalted()  returns FALSE (0000ms, 0438ms total)
T0E24 001:130 JLINK_IsHalted()  returns FALSE (0000ms, 0438ms total)
T0E24 001:132 JLINK_IsHalted()  returns FALSE (0000ms, 0438ms total)
T0E24 001:134 JLINK_IsHalted()  returns FALSE (0001ms, 0439ms total)
T0E24 001:136 JLINK_IsHalted()  returns FALSE (0001ms, 0439ms total)
T0E24 001:138 JLINK_IsHalted()  returns FALSE (0000ms, 0438ms total)
T0E24 001:139 JLINK_IsHalted()  returns FALSE (0001ms, 0439ms total)
T0E24 001:142 JLINK_IsHalted()  returns FALSE (0000ms, 0438ms total)
T0E24 001:144 JLINK_IsHalted() -- CPU_ReadMem(2 bytes @ 0x20000000)  returns TRUE (0003ms, 0441ms total)
T0E24 001:147 JLINK_ReadReg(R15 (PC))  returns 0x20000000 (0000ms, 0438ms total)
T0E24 001:147 JLINK_ClrBPEx(BPHandle = 0x00000003)  returns 0x00 (0000ms, 0438ms total)
T0E24 001:147 JLINK_ReadReg(R0)  returns 0x00000000 (0000ms, 0438ms total)
T0E24 001:148 JLINK_WriteReg(R0, 0x08004000)  returns 0x00 (0000ms, 0438ms total)
T0E24 001:148 JLINK_WriteReg(R1, 0x00004000)  returns 0x00 (0000ms, 0438ms total)
T0E24 001:148 JLINK_WriteReg(R2, 0x000000FF)  returns 0x00 (0000ms, 0438ms total)
T0E24 001:148 JLINK_WriteReg(R3, 0x00000000)  returns 0x00 (0000ms, 0438ms total)
T0E24 001:148 JLINK_WriteReg(R4, 0x00000000)  returns 0x00 (0000ms, 0438ms total)
T0E24 001:148 JLINK_WriteReg(R5, 0x00000000)  returns 0x00 (0000ms, 0438ms total)
T0E24 001:148 JLINK_WriteReg(R6, 0x00000000)  returns 0x00 (0000ms, 0438ms total)
T0E24 001:148 JLINK_WriteReg(R7, 0x00000000)  returns 0x00 (0000ms, 0438ms total)
T0E24 001:148 JLINK_WriteReg(R8, 0x00000000)  returns 0x00 (0000ms, 0438ms total)
T0E24 001:148 JLINK_WriteReg(R9, 0x20000184)  returns 0x00 (0000ms, 0438ms total)
T0E24 001:148 JLINK_WriteReg(R10, 0x00000000)  returns 0x00 (0000ms, 0438ms total)
T0E24 001:148 JLINK_WriteReg(R11, 0x00000000)  returns 0x00 (0000ms, 0438ms total)
T0E24 001:148 JLINK_WriteReg(R12, 0x00000000)  returns 0x00 (0000ms, 0438ms total)
T0E24 001:148 JLINK_WriteReg(R13 (SP), 0x20001000)  returns 0x00 (0000ms, 0438ms total)
T0E24 001:148 JLINK_WriteReg(R14, 0x20000001)  returns 0x00 (0000ms, 0438ms total)
T0E24 001:148 JLINK_WriteReg(R15 (PC), 0x20000020)  returns 0x00 (0000ms, 0438ms total)
T0E24 001:148 JLINK_WriteReg(XPSR, 0x01000000)  returns 0x00 (0000ms, 0438ms total)
T0E24 001:148 JLINK_WriteReg(MSP, 0x20001000)  returns 0x00 (0000ms, 0438ms total)
T0E24 001:148 JLINK_WriteReg(PSP, 0x20001000)  returns 0x00 (0000ms, 0438ms total)
T0E24 001:148 JLINK_WriteReg(CFBP, 0x00000000)  returns 0x00 (0000ms, 0438ms total)
T0E24 001:148 JLINK_SetBPEx(Addr = 0x20000000, Type = 0xFFFFFFF2)  returns 0x00000004 (0000ms, 0438ms total)
T0E24 001:148 JLINK_Go() -- CPU_ReadMem(4 bytes @ 0xE0001000) (0003ms, 0441ms total)
T0E24 001:151 JLINK_IsHalted() -- CPU_ReadMem(2 bytes @ 0x20000000)  returns TRUE (0003ms, 0444ms total)
T0E24 001:154 JLINK_ReadReg(R15 (PC))  returns 0x20000000 (0000ms, 0441ms total)
T0E24 001:154 JLINK_ClrBPEx(BPHandle = 0x00000004)  returns 0x00 (0000ms, 0441ms total)
T0E24 001:154 JLINK_ReadReg(R0)  returns 0x00000001 (0000ms, 0441ms total)
T0E24 001:154 JLINK_WriteReg(R0, 0x08004000)  returns 0x00 (0000ms, 0441ms total)
T0E24 001:154 JLINK_WriteReg(R1, 0x00004000)  returns 0x00 (0000ms, 0441ms total)
T0E24 001:154 JLINK_WriteReg(R2, 0x000000FF)  returns 0x00 (0000ms, 0441ms total)
T0E24 001:154 JLINK_WriteReg(R3, 0x00000000)  returns 0x00 (0000ms, 0441ms total)
T0E24 001:154 JLINK_WriteReg(R4, 0x00000000)  returns 0x00 (0000ms, 0441ms total)
T0E24 001:154 JLINK_WriteReg(R5, 0x00000000)  returns 0x00 (0000ms, 0441ms total)
T0E24 001:154 JLINK_WriteReg(R6, 0x00000000)  returns 0x00 (0000ms, 0441ms total)
T0E24 001:154 JLINK_WriteReg(R7, 0x00000000)  returns 0x00 (0000ms, 0441ms total)
T0E24 001:154 JLINK_WriteReg(R8, 0x00000000)  returns 0x00 (0001ms, 0442ms total)
T0E24 001:155 JLINK_WriteReg(R9, 0x20000184)  returns 0x00 (0000ms, 0442ms total)
T0E24 001:155 JLINK_WriteReg(R10, 0x00000000)  returns 0x00 (0000ms, 0442ms total)
T0E24 001:155 JLINK_WriteReg(R11, 0x00000000)  returns 0x00 (0000ms, 0442ms total)
T0E24 001:155 JLINK_WriteReg(R12, 0x00000000)  returns 0x00 (0000ms, 0442ms total)
T0E24 001:155 JLINK_WriteReg(R13 (SP), 0x20001000)  returns 0x00 (0000ms, 0442ms total)
T0E24 001:155 JLINK_WriteReg(R14, 0x20000001)  returns 0x00 (0000ms, 0442ms total)
T0E24 001:155 JLINK_WriteReg(R15 (PC), 0x200000C6)  returns 0x00 (0000ms, 0442ms total)
T0E24 001:155 JLINK_WriteReg(XPSR, 0x01000000)  returns 0x00 (0000ms, 0442ms total)
T0E24 001:155 JLINK_WriteReg(MSP, 0x20001000)  returns 0x00 (0000ms, 0442ms total)
T0E24 001:155 JLINK_WriteReg(PSP, 0x20001000)  returns 0x00 (0000ms, 0442ms total)
T0E24 001:155 JLINK_WriteReg(CFBP, 0x00000000)  returns 0x00 (0000ms, 0442ms total)
T0E24 001:155 JLINK_SetBPEx(Addr = 0x20000000, Type = 0xFFFFFFF2)  returns 0x00000005 (0000ms, 0442ms total)
T0E24 001:155 JLINK_Go() -- CPU_ReadMem(4 bytes @ 0xE0001000) (0002ms, 0444ms total)
T0E24 001:157 JLINK_IsHalted()  returns FALSE (0000ms, 0444ms total)
T0E24 001:175 JLINK_IsHalted()  returns FALSE (0001ms, 0445ms total)
T0E24 001:177 JLINK_IsHalted()  returns FALSE (0001ms, 0445ms total)
T0E24 001:179 JLINK_IsHalted()  returns FALSE (0001ms, 0445ms total)
T0E24 001:182 JLINK_IsHalted()  returns FALSE (0000ms, 0444ms total)
T0E24 001:184 JLINK_IsHalted()  returns FALSE (0000ms, 0444ms total)
T0E24 001:186 JLINK_IsHalted()  returns FALSE (0000ms, 0444ms total)
T0E24 001:188 JLINK_IsHalted()  returns FALSE (0000ms, 0444ms total)
T0E24 001:190 JLINK_IsHalted()  returns FALSE (0000ms, 0444ms total)
T0E24 001:192 JLINK_IsHalted()  returns FALSE (0001ms, 0445ms total)
T0E24 001:194 JLINK_IsHalted()  returns FALSE (0001ms, 0445ms total)
T0E24 001:259 JLINK_IsHalted()  returns FALSE (0000ms, 0444ms total)
T0E24 001:261 JLINK_IsHalted()  returns FALSE (0000ms, 0444ms total)
T0E24 001:263 JLINK_IsHalted()  returns FALSE (0000ms, 0444ms total)
T0E24 001:265 JLINK_IsHalted()  returns FALSE (0000ms, 0444ms total)
T0E24 001:267 JLINK_IsHalted()  returns FALSE (0000ms, 0444ms total)
T0E24 001:269 JLINK_IsHalted()  returns FALSE (0000ms, 0444ms total)
T0E24 001:337 JLINK_IsHalted()  returns FALSE (0001ms, 0445ms total)
T0E24 001:339 JLINK_IsHalted()  returns FALSE (0000ms, 0444ms total)
T0E24 001:341 JLINK_IsHalted()  returns FALSE (0000ms, 0444ms total)
T0E24 001:342 JLINK_IsHalted()  returns FALSE (0001ms, 0445ms total)
T0E24 001:344 JLINK_IsHalted()  returns FALSE (0000ms, 0444ms total)
T0E24 001:346 JLINK_IsHalted()  returns FALSE (0000ms, 0444ms total)
T0E24 001:348 JLINK_IsHalted()  returns FALSE (0000ms, 0444ms total)
T0E24 001:357 JLINK_IsHalted()  returns FALSE (0000ms, 0444ms total)
T0E24 001:359 JLINK_IsHalted()  returns FALSE (0000ms, 0444ms total)
T0E24 001:361 JLINK_IsHalted()  returns FALSE (0000ms, 0444ms total)
T0E24 001:363 JLINK_IsHalted()  returns FALSE (0000ms, 0444ms total)
T0E24 001:365 JLINK_IsHalted()  returns FALSE (0000ms, 0444ms total)
T0E24 001:367 JLINK_IsHalted()  returns FALSE (0000ms, 0444ms total)
T0E24 001:369 JLINK_IsHalted()  returns FALSE (0000ms, 0444ms total)
T0E24 001:371 JLINK_IsHalted()  returns FALSE (0000ms, 0444ms total)
T0E24 001:373 JLINK_IsHalted()  returns FALSE (0000ms, 0444ms total)
T0E24 001:375 JLINK_IsHalted()  returns FALSE (0000ms, 0444ms total)
T0E24 001:377 JLINK_IsHalted()  returns FALSE (0000ms, 0444ms total)
T0E24 001:389 JLINK_IsHalted()  returns FALSE (0000ms, 0444ms total)
T0E24 001:391 JLINK_IsHalted()  returns FALSE (0000ms, 0444ms total)
T0E24 001:394 JLINK_IsHalted()  returns FALSE (0000ms, 0444ms total)
T0E24 001:396 JLINK_IsHalted()  returns FALSE (0000ms, 0444ms total)
T0E24 001:398 JLINK_IsHalted()  returns FALSE (0000ms, 0444ms total)
T0E24 001:400 JLINK_IsHalted()  returns FALSE (0000ms, 0444ms total)
T0E24 001:402 JLINK_IsHalted()  returns FALSE (0000ms, 0444ms total)
T0E24 001:404 JLINK_IsHalted()  returns FALSE (0000ms, 0444ms total)
T0E24 001:406 JLINK_IsHalted()  returns FALSE (0000ms, 0444ms total)
T0E24 001:408 JLINK_IsHalted()  returns FALSE (0000ms, 0444ms total)
T0E24 001:410 JLINK_IsHalted()  returns FALSE (0000ms, 0444ms total)
T0E24 001:416 JLINK_IsHalted()  returns FALSE (0000ms, 0444ms total)
T0E24 001:418 JLINK_IsHalted()  returns FALSE (0000ms, 0444ms total)
T0E24 001:420 JLINK_IsHalted()  returns FALSE (0000ms, 0444ms total)
T0E24 001:422 JLINK_IsHalted()  returns FALSE (0000ms, 0444ms total)
T0E24 001:424 JLINK_IsHalted()  returns FALSE (0000ms, 0444ms total)
T0E24 001:426 JLINK_IsHalted()  returns FALSE (0000ms, 0444ms total)
T0E24 001:428 JLINK_IsHalted()  returns FALSE (0000ms, 0444ms total)
T0E24 001:430 JLINK_IsHalted()  returns FALSE (0000ms, 0444ms total)
T0E24 001:432 JLINK_IsHalted()  returns FALSE (0000ms, 0444ms total)
T0E24 001:434 JLINK_IsHalted()  returns FALSE (0000ms, 0444ms total)
T0E24 001:436 JLINK_IsHalted()  returns FALSE (0000ms, 0444ms total)
T0E24 001:438 JLINK_IsHalted()  returns FALSE (0000ms, 0444ms total)
T0E24 001:440 JLINK_IsHalted()  returns FALSE (0000ms, 0444ms total)
T0E24 001:442 JLINK_IsHalted()  returns FALSE (0000ms, 0444ms total)
T0E24 001:444 JLINK_IsHalted()  returns FALSE (0000ms, 0444ms total)
T0E24 001:446 JLINK_IsHalted()  returns FALSE (0000ms, 0444ms total)
T0E24 001:448 JLINK_IsHalted()  returns FALSE (0000ms, 0444ms total)
T0E24 001:450 JLINK_IsHalted()  returns FALSE (0000ms, 0444ms total)
T0E24 001:452 JLINK_IsHalted()  returns FALSE (0000ms, 0444ms total)
T0E24 001:454 JLINK_IsHalted()  returns FALSE (0000ms, 0444ms total)
T0E24 001:456 JLINK_IsHalted()  returns FALSE (0000ms, 0444ms total)
T0E24 001:458 JLINK_IsHalted()  returns FALSE (0000ms, 0444ms total)
T0E24 001:460 JLINK_IsHalted()  returns FALSE (0000ms, 0444ms total)
T0E24 001:462 JLINK_IsHalted()  returns FALSE (0000ms, 0444ms total)
T0E24 001:464 JLINK_IsHalted()  returns FALSE (0000ms, 0444ms total)
T0E24 001:466 JLINK_IsHalted()  returns FALSE (0000ms, 0444ms total)
T0E24 001:468 JLINK_IsHalted()  returns FALSE (0000ms, 0444ms total)
T0E24 001:470 JLINK_IsHalted()  returns FALSE (0000ms, 0444ms total)
T0E24 001:472 JLINK_IsHalted()  returns FALSE (0000ms, 0444ms total)
T0E24 001:518 JLINK_IsHalted()  returns FALSE (0000ms, 0444ms total)
T0E24 001:520 JLINK_IsHalted()  returns FALSE (0000ms, 0444ms total)
T0E24 001:523 JLINK_IsHalted()  returns FALSE (0000ms, 0444ms total)
T0E24 001:525 JLINK_IsHalted()  returns FALSE (0000ms, 0444ms total)
T0E24 001:527 JLINK_IsHalted()  returns FALSE (0000ms, 0444ms total)
T0E24 001:529 JLINK_IsHalted()  returns FALSE (0000ms, 0444ms total)
T0E24 001:531 JLINK_IsHalted()  returns FALSE (0000ms, 0444ms total)
T0E24 001:533 JLINK_IsHalted()  returns FALSE (0000ms, 0444ms total)
T0E24 001:539 JLINK_IsHalted()  returns FALSE (0000ms, 0444ms total)
T0E24 001:541 JLINK_IsHalted()  returns FALSE (0000ms, 0444ms total)
T0E24 001:543 JLINK_IsHalted()  returns FALSE (0000ms, 0444ms total)
T0E24 001:545 JLINK_IsHalted()  returns FALSE (0000ms, 0444ms total)
T0E24 001:547 JLINK_IsHalted()  returns FALSE (0000ms, 0444ms total)
T0E24 001:549 JLINK_IsHalted()  returns FALSE (0000ms, 0444ms total)
T0E24 001:556 JLINK_IsHalted()  returns FALSE (0000ms, 0444ms total)
T0E24 001:558 JLINK_IsHalted()  returns FALSE (0000ms, 0444ms total)
T0E24 001:560 JLINK_IsHalted()  returns FALSE (0000ms, 0444ms total)
T0E24 001:562 JLINK_IsHalted()  returns FALSE (0000ms, 0444ms total)
T0E24 001:564 JLINK_IsHalted()  returns FALSE (0000ms, 0444ms total)
T0E24 001:566 JLINK_IsHalted()  returns FALSE (0000ms, 0444ms total)
T0E24 001:568 JLINK_IsHalted() -- CPU_ReadMem(2 bytes @ 0x20000000)  returns TRUE (0003ms, 0447ms total)
T0E24 001:571 JLINK_ReadReg(R15 (PC))  returns 0x20000000 (0000ms, 0444ms total)
T0E24 001:571 JLINK_ClrBPEx(BPHandle = 0x00000005)  returns 0x00 (0000ms, 0444ms total)
T0E24 001:571 JLINK_ReadReg(R0)  returns 0x00000000 (0000ms, 0444ms total)
T0E24 001:572 JLINK_WriteReg(R0, 0x00000001)  returns 0x00 (0000ms, 0444ms total)
T0E24 001:572 JLINK_WriteReg(R1, 0x00004000)  returns 0x00 (0000ms, 0444ms total)
T0E24 001:572 JLINK_WriteReg(R2, 0x000000FF)  returns 0x00 (0000ms, 0444ms total)
T0E24 001:572 JLINK_WriteReg(R3, 0x00000000)  returns 0x00 (0000ms, 0444ms total)
T0E24 001:572 JLINK_WriteReg(R4, 0x00000000)  returns 0x00 (0000ms, 0444ms total)
T0E24 001:572 JLINK_WriteReg(R5, 0x00000000)  returns 0x00 (0000ms, 0444ms total)
T0E24 001:572 JLINK_WriteReg(R6, 0x00000000)  returns 0x00 (0000ms, 0444ms total)
T0E24 001:572 JLINK_WriteReg(R7, 0x00000000)  returns 0x00 (0000ms, 0444ms total)
T0E24 001:572 JLINK_WriteReg(R8, 0x00000000)  returns 0x00 (0000ms, 0444ms total)
T0E24 001:572 JLINK_WriteReg(R9, 0x20000184)  returns 0x00 (0000ms, 0444ms total)
T0E24 001:572 JLINK_WriteReg(R10, 0x00000000)  returns 0x00 (0000ms, 0444ms total)
T0E24 001:572 JLINK_WriteReg(R11, 0x00000000)  returns 0x00 (0000ms, 0444ms total)
T0E24 001:572 JLINK_WriteReg(R12, 0x00000000)  returns 0x00 (0000ms, 0444ms total)
T0E24 001:572 JLINK_WriteReg(R13 (SP), 0x20001000)  returns 0x00 (0000ms, 0444ms total)
T0E24 001:572 JLINK_WriteReg(R14, 0x20000001)  returns 0x00 (0000ms, 0444ms total)
T0E24 001:572 JLINK_WriteReg(R15 (PC), 0x2000008C)  returns 0x00 (0000ms, 0444ms total)
T0E24 001:572 JLINK_WriteReg(XPSR, 0x01000000)  returns 0x00 (0000ms, 0444ms total)
T0E24 001:572 JLINK_WriteReg(MSP, 0x20001000)  returns 0x00 (0000ms, 0444ms total)
T0E24 001:572 JLINK_WriteReg(PSP, 0x20001000)  returns 0x00 (0000ms, 0444ms total)
T0E24 001:572 JLINK_WriteReg(CFBP, 0x00000000)  returns 0x00 (0000ms, 0444ms total)
T0E24 001:572 JLINK_SetBPEx(Addr = 0x20000000, Type = 0xFFFFFFF2)  returns 0x00000006 (0000ms, 0444ms total)
T0E24 001:572 JLINK_Go() -- CPU_ReadMem(4 bytes @ 0xE0001000) (0002ms, 0446ms total)
T0E24 001:574 JLINK_IsHalted() -- CPU_ReadMem(2 bytes @ 0x20000000)  returns TRUE (0004ms, 0450ms total)
T0E24 001:578 JLINK_ReadReg(R15 (PC))  returns 0x20000000 (0000ms, 0446ms total)
T0E24 001:578 JLINK_ClrBPEx(BPHandle = 0x00000006)  returns 0x00 (0000ms, 0446ms total)
T0E24 001:578 JLINK_ReadReg(R0)  returns 0x00000000 (0000ms, 0446ms total)
T0E24 001:671 JLINK_WriteMem(0x20000000, 0x0188 Bytes, ...) - Data: 00 BE 0A E0 0D 78 2D 06 68 40 08 24 40 00 00 D3 ... -- CPU_WriteMem(392 bytes @ 0x20000000)  returns 0x188 (0005ms, 0451ms total)
T0E24 001:676 JLINK_WriteReg(R0, 0x08000000)  returns 0x00 (0000ms, 0451ms total)
T0E24 001:676 JLINK_WriteReg(R1, 0x007A1200)  returns 0x00 (0000ms, 0451ms total)
T0E24 001:676 JLINK_WriteReg(R2, 0x00000002)  returns 0x00 (0000ms, 0451ms total)
T0E24 001:676 JLINK_WriteReg(R3, 0x00000000)  returns 0x00 (0000ms, 0451ms total)
T0E24 001:676 JLINK_WriteReg(R4, 0x00000000)  returns 0x00 (0000ms, 0451ms total)
T0E24 001:676 JLINK_WriteReg(R5, 0x00000000)  returns 0x00 (0000ms, 0451ms total)
T0E24 001:676 JLINK_WriteReg(R6, 0x00000000)  returns 0x00 (0000ms, 0451ms total)
T0E24 001:676 JLINK_WriteReg(R7, 0x00000000)  returns 0x00 (0000ms, 0451ms total)
T0E24 001:676 JLINK_WriteReg(R8, 0x00000000)  returns 0x00 (0000ms, 0451ms total)
T0E24 001:676 JLINK_WriteReg(R9, 0x20000184)  returns 0x00 (0000ms, 0451ms total)
T0E24 001:676 JLINK_WriteReg(R10, 0x00000000)  returns 0x00 (0000ms, 0451ms total)
T0E24 001:676 JLINK_WriteReg(R11, 0x00000000)  returns 0x00 (0000ms, 0451ms total)
T0E24 001:676 JLINK_WriteReg(R12, 0x00000000)  returns 0x00 (0000ms, 0451ms total)
T0E24 001:676 JLINK_WriteReg(R13 (SP), 0x20001000)  returns 0x00 (0000ms, 0451ms total)
T0E24 001:676 JLINK_WriteReg(R14, 0x20000001)  returns 0x00 (0000ms, 0451ms total)
T0E24 001:676 JLINK_WriteReg(R15 (PC), 0x2000005E)  returns 0x00 (0000ms, 0451ms total)
T0E24 001:676 JLINK_WriteReg(XPSR, 0x01000000)  returns 0x00 (0000ms, 0451ms total)
T0E24 001:676 JLINK_WriteReg(MSP, 0x20001000)  returns 0x00 (0000ms, 0451ms total)
T0E24 001:676 JLINK_WriteReg(PSP, 0x20001000)  returns 0x00 (0000ms, 0451ms total)
T0E24 001:676 JLINK_WriteReg(CFBP, 0x00000000)  returns 0x00 (0000ms, 0451ms total)
T0E24 001:676 JLINK_SetBPEx(Addr = 0x20000000, Type = 0xFFFFFFF2) -- CPU_ReadMem(2 bytes @ 0x20000000)  returns 0x00000007 (0001ms, 0452ms total)
T0E24 001:677 JLINK_Go() -- CPU_WriteMem(2 bytes @ 0x20000000) -- CPU_ReadMem(4 bytes @ 0xE0001000) (0003ms, 0455ms total)
T0E24 001:680 JLINK_IsHalted() -- CPU_ReadMem(2 bytes @ 0x20000000)  returns TRUE (0004ms, 0459ms total)
T0E24 001:684 JLINK_ReadReg(R15 (PC))  returns 0x20000000 (0000ms, 0455ms total)
T0E24 001:684 JLINK_ClrBPEx(BPHandle = 0x00000007)  returns 0x00 (0000ms, 0455ms total)
T0E24 001:684 JLINK_ReadReg(R0)  returns 0x00000000 (0000ms, 0455ms total)
T0E24 001:684 JLINK_WriteMem(0x20000188, 0x0400 Bytes, ...) - Data: 30 0F 00 20 19 03 00 08 23 1F 00 08 1B 1F 00 08 ... -- CPU_WriteMem(1024 bytes @ 0x20000188)  returns 0x400 (0012ms, 0467ms total)
T0E24 001:696 JLINK_WriteReg(R0, 0x08000000)  returns 0x00 (0000ms, 0467ms total)
T0E24 001:696 JLINK_WriteReg(R1, 0x00000400)  returns 0x00 (0000ms, 0467ms total)
T0E24 001:696 JLINK_WriteReg(R2, 0x20000188)  returns 0x00 (0000ms, 0467ms total)
T0E24 001:696 JLINK_WriteReg(R3, 0x00000000)  returns 0x00 (0000ms, 0467ms total)
T0E24 001:696 JLINK_WriteReg(R4, 0x00000000)  returns 0x00 (0001ms, 0468ms total)
T0E24 001:697 JLINK_WriteReg(R5, 0x00000000)  returns 0x00 (0000ms, 0468ms total)
T0E24 001:697 JLINK_WriteReg(R6, 0x00000000)  returns 0x00 (0000ms, 0468ms total)
T0E24 001:697 JLINK_WriteReg(R7, 0x00000000)  returns 0x00 (0000ms, 0468ms total)
T0E24 001:697 JLINK_WriteReg(R8, 0x00000000)  returns 0x00 (0000ms, 0468ms total)
T0E24 001:697 JLINK_WriteReg(R9, 0x20000184)  returns 0x00 (0000ms, 0468ms total)
T0E24 001:697 JLINK_WriteReg(R10, 0x00000000)  returns 0x00 (0000ms, 0468ms total)
T0E24 001:697 JLINK_WriteReg(R11, 0x00000000)  returns 0x00 (0000ms, 0468ms total)
T0E24 001:697 JLINK_WriteReg(R12, 0x00000000)  returns 0x00 (0000ms, 0468ms total)
T0E24 001:697 JLINK_WriteReg(R13 (SP), 0x20001000)  returns 0x00 (0000ms, 0468ms total)
T0E24 001:697 JLINK_WriteReg(R14, 0x20000001)  returns 0x00 (0000ms, 0468ms total)
T0E24 001:697 JLINK_WriteReg(R15 (PC), 0x20000112)  returns 0x00 (0000ms, 0468ms total)
T0E24 001:697 JLINK_WriteReg(XPSR, 0x01000000)  returns 0x00 (0000ms, 0468ms total)
T0E24 001:697 JLINK_WriteReg(MSP, 0x20001000)  returns 0x00 (0000ms, 0468ms total)
T0E24 001:697 JLINK_WriteReg(PSP, 0x20001000)  returns 0x00 (0000ms, 0468ms total)
T0E24 001:697 JLINK_WriteReg(CFBP, 0x00000000)  returns 0x00 (0000ms, 0468ms total)
T0E24 001:697 JLINK_SetBPEx(Addr = 0x20000000, Type = 0xFFFFFFF2)  returns 0x00000008 (0000ms, 0468ms total)
T0E24 001:697 JLINK_Go() -- CPU_ReadMem(4 bytes @ 0xE0001000) (0002ms, 0470ms total)
T0E24 001:699 JLINK_IsHalted()  returns FALSE (0001ms, 0471ms total)
T0E24 001:705 JLINK_IsHalted() -- CPU_ReadMem(2 bytes @ 0x20000000)  returns TRUE (0003ms, 0473ms total)
T0E24 001:708 JLINK_ReadReg(R15 (PC))  returns 0x20000000 (0000ms, 0470ms total)
T0E24 001:708 JLINK_ClrBPEx(BPHandle = 0x00000008)  returns 0x00 (0000ms, 0470ms total)
T0E24 001:708 JLINK_ReadReg(R0)  returns 0x00000000 (0000ms, 0470ms total)
T0E24 001:710 JLINK_WriteMem(0x20000188, 0x0400 Bytes, ...) - Data: 00 68 10 BD 10 B5 04 46 00 F0 C6 FA 04 60 10 BD ... -- CPU_WriteMem(1024 bytes @ 0x20000188)  returns 0x400 (0012ms, 0482ms total)
T0E24 001:722 JLINK_WriteReg(R0, 0x08000400)  returns 0x00 (0000ms, 0482ms total)
T0E24 001:722 JLINK_WriteReg(R1, 0x00000400)  returns 0x00 (0000ms, 0482ms total)
T0E24 001:722 JLINK_WriteReg(R2, 0x20000188)  returns 0x00 (0000ms, 0482ms total)
T0E24 001:722 JLINK_WriteReg(R3, 0x00000000)  returns 0x00 (0000ms, 0482ms total)
T0E24 001:722 JLINK_WriteReg(R4, 0x00000000)  returns 0x00 (0000ms, 0482ms total)
T0E24 001:722 JLINK_WriteReg(R5, 0x00000000)  returns 0x00 (0000ms, 0482ms total)
T0E24 001:722 JLINK_WriteReg(R6, 0x00000000)  returns 0x00 (0000ms, 0482ms total)
T0E24 001:722 JLINK_WriteReg(R7, 0x00000000)  returns 0x00 (0000ms, 0482ms total)
T0E24 001:722 JLINK_WriteReg(R8, 0x00000000)  returns 0x00 (0000ms, 0482ms total)
T0E24 001:722 JLINK_WriteReg(R9, 0x20000184)  returns 0x00 (0000ms, 0482ms total)
T0E24 001:722 JLINK_WriteReg(R10, 0x00000000)  returns 0x00 (0000ms, 0482ms total)
T0E24 001:722 JLINK_WriteReg(R11, 0x00000000)  returns 0x00 (0000ms, 0482ms total)
T0E24 001:722 JLINK_WriteReg(R12, 0x00000000)  returns 0x00 (0000ms, 0482ms total)
T0E24 001:722 JLINK_WriteReg(R13 (SP), 0x20001000)  returns 0x00 (0000ms, 0482ms total)
T0E24 001:722 JLINK_WriteReg(R14, 0x20000001)  returns 0x00 (0000ms, 0482ms total)
T0E24 001:722 JLINK_WriteReg(R15 (PC), 0x20000112)  returns 0x00 (0000ms, 0482ms total)
T0E24 001:722 JLINK_WriteReg(XPSR, 0x01000000)  returns 0x00 (0000ms, 0482ms total)
T0E24 001:722 JLINK_WriteReg(MSP, 0x20001000)  returns 0x00 (0000ms, 0482ms total)
T0E24 001:722 JLINK_WriteReg(PSP, 0x20001000)  returns 0x00 (0000ms, 0482ms total)
T0E24 001:722 JLINK_WriteReg(CFBP, 0x00000000)  returns 0x00 (0000ms, 0482ms total)
T0E24 001:722 JLINK_SetBPEx(Addr = 0x20000000, Type = 0xFFFFFFF2)  returns 0x00000009 (0000ms, 0482ms total)
T0E24 001:722 JLINK_Go() -- CPU_ReadMem(4 bytes @ 0xE0001000) (0003ms, 0485ms total)
T0E24 001:725 JLINK_IsHalted()  returns FALSE (0000ms, 0485ms total)
T0E24 001:732 JLINK_IsHalted() -- CPU_ReadMem(2 bytes @ 0x20000000)  returns TRUE (0003ms, 0488ms total)
T0E24 001:736 JLINK_ReadReg(R15 (PC))  returns 0x20000000 (0000ms, 0485ms total)
T0E24 001:736 JLINK_ClrBPEx(BPHandle = 0x00000009)  returns 0x00 (0000ms, 0485ms total)
T0E24 001:736 JLINK_ReadReg(R0)  returns 0x00000000 (0000ms, 0485ms total)
T0E24 001:736 JLINK_WriteMem(0x20000188, 0x0400 Bytes, ...) - Data: 89 46 04 46 4F F0 00 0A DF F8 74 B1 FB 44 C0 F8 ... -- CPU_WriteMem(1024 bytes @ 0x20000188)  returns 0x400 (0013ms, 0498ms total)
T0E24 001:749 JLINK_WriteReg(R0, 0x08000800)  returns 0x00 (0000ms, 0498ms total)
T0E24 001:749 JLINK_WriteReg(R1, 0x00000400)  returns 0x00 (0000ms, 0498ms total)
T0E24 001:749 JLINK_WriteReg(R2, 0x20000188)  returns 0x00 (0000ms, 0498ms total)
T0E24 001:749 JLINK_WriteReg(R3, 0x00000000)  returns 0x00 (0000ms, 0498ms total)
T0E24 001:749 JLINK_WriteReg(R4, 0x00000000)  returns 0x00 (0000ms, 0498ms total)
T0E24 001:749 JLINK_WriteReg(R5, 0x00000000)  returns 0x00 (0000ms, 0498ms total)
T0E24 001:749 JLINK_WriteReg(R6, 0x00000000)  returns 0x00 (0000ms, 0498ms total)
T0E24 001:749 JLINK_WriteReg(R7, 0x00000000)  returns 0x00 (0000ms, 0498ms total)
T0E24 001:749 JLINK_WriteReg(R8, 0x00000000)  returns 0x00 (0000ms, 0498ms total)
T0E24 001:749 JLINK_WriteReg(R9, 0x20000184)  returns 0x00 (0000ms, 0498ms total)
T0E24 001:749 JLINK_WriteReg(R10, 0x00000000)  returns 0x00 (0000ms, 0498ms total)
T0E24 001:749 JLINK_WriteReg(R11, 0x00000000)  returns 0x00 (0000ms, 0498ms total)
T0E24 001:749 JLINK_WriteReg(R12, 0x00000000)  returns 0x00 (0000ms, 0498ms total)
T0E24 001:749 JLINK_WriteReg(R13 (SP), 0x20001000)  returns 0x00 (0000ms, 0498ms total)
T0E24 001:749 JLINK_WriteReg(R14, 0x20000001)  returns 0x00 (0000ms, 0498ms total)
T0E24 001:749 JLINK_WriteReg(R15 (PC), 0x20000112)  returns 0x00 (0000ms, 0498ms total)
T0E24 001:749 JLINK_WriteReg(XPSR, 0x01000000)  returns 0x00 (0000ms, 0498ms total)
T0E24 001:749 JLINK_WriteReg(MSP, 0x20001000)  returns 0x00 (0000ms, 0498ms total)
T0E24 001:749 JLINK_WriteReg(PSP, 0x20001000)  returns 0x00 (0000ms, 0498ms total)
T0E24 001:749 JLINK_WriteReg(CFBP, 0x00000000)  returns 0x00 (0000ms, 0498ms total)
T0E24 001:749 JLINK_SetBPEx(Addr = 0x20000000, Type = 0xFFFFFFF2)  returns 0x0000000A (0000ms, 0498ms total)
T0E24 001:749 JLINK_Go() -- CPU_ReadMem(4 bytes @ 0xE0001000) (0002ms, 0500ms total)
T0E24 001:751 JLINK_IsHalted()  returns FALSE (0001ms, 0501ms total)
T0E24 001:754 JLINK_IsHalted()  returns FALSE (0000ms, 0500ms total)
T0E24 001:756 JLINK_IsHalted() -- CPU_ReadMem(2 bytes @ 0x20000000)  returns TRUE (0004ms, 0504ms total)
T0E24 001:760 JLINK_ReadReg(R15 (PC))  returns 0x20000000 (0000ms, 0500ms total)
T0E24 001:760 JLINK_ClrBPEx(BPHandle = 0x0000000A)  returns 0x00 (0000ms, 0500ms total)
T0E24 001:760 JLINK_ReadReg(R0)  returns 0x00000000 (0000ms, 0500ms total)
T0E24 001:760 JLINK_WriteMem(0x20000188, 0x0400 Bytes, ...) - Data: 4F F4 40 01 01 EA 50 00 4F EA 90 59 B9 F1 01 0F ... -- CPU_WriteMem(1024 bytes @ 0x20000188)  returns 0x400 (0012ms, 0512ms total)
T0E24 001:773 JLINK_WriteReg(R0, 0x08000C00)  returns 0x00 (0000ms, 0512ms total)
T0E24 001:773 JLINK_WriteReg(R1, 0x00000400)  returns 0x00 (0000ms, 0512ms total)
T0E24 001:773 JLINK_WriteReg(R2, 0x20000188)  returns 0x00 (0000ms, 0512ms total)
T0E24 001:773 JLINK_WriteReg(R3, 0x00000000)  returns 0x00 (0000ms, 0512ms total)
T0E24 001:773 JLINK_WriteReg(R4, 0x00000000)  returns 0x00 (0000ms, 0512ms total)
T0E24 001:773 JLINK_WriteReg(R5, 0x00000000)  returns 0x00 (0000ms, 0512ms total)
T0E24 001:773 JLINK_WriteReg(R6, 0x00000000)  returns 0x00 (0000ms, 0512ms total)
T0E24 001:773 JLINK_WriteReg(R7, 0x00000000)  returns 0x00 (0000ms, 0512ms total)
T0E24 001:773 JLINK_WriteReg(R8, 0x00000000)  returns 0x00 (0000ms, 0512ms total)
T0E24 001:773 JLINK_WriteReg(R9, 0x20000184)  returns 0x00 (0000ms, 0512ms total)
T0E24 001:773 JLINK_WriteReg(R10, 0x00000000)  returns 0x00 (0000ms, 0512ms total)
T0E24 001:773 JLINK_WriteReg(R11, 0x00000000)  returns 0x00 (0000ms, 0512ms total)
T0E24 001:773 JLINK_WriteReg(R12, 0x00000000)  returns 0x00 (0000ms, 0512ms total)
T0E24 001:773 JLINK_WriteReg(R13 (SP), 0x20001000)  returns 0x00 (0000ms, 0512ms total)
T0E24 001:773 JLINK_WriteReg(R14, 0x20000001)  returns 0x00 (0000ms, 0512ms total)
T0E24 001:773 JLINK_WriteReg(R15 (PC), 0x20000112)  returns 0x00 (0000ms, 0512ms total)
T0E24 001:773 JLINK_WriteReg(XPSR, 0x01000000)  returns 0x00 (0000ms, 0512ms total)
T0E24 001:773 JLINK_WriteReg(MSP, 0x20001000)  returns 0x00 (0000ms, 0512ms total)
T0E24 001:773 JLINK_WriteReg(PSP, 0x20001000)  returns 0x00 (0000ms, 0512ms total)
T0E24 001:773 JLINK_WriteReg(CFBP, 0x00000000)  returns 0x00 (0000ms, 0512ms total)
T0E24 001:773 JLINK_SetBPEx(Addr = 0x20000000, Type = 0xFFFFFFF2)  returns 0x0000000B (0000ms, 0512ms total)
T0E24 001:773 JLINK_Go() -- CPU_ReadMem(4 bytes @ 0xE0001000) (0002ms, 0514ms total)
T0E24 001:775 JLINK_IsHalted()  returns FALSE (0001ms, 0515ms total)
T0E24 001:778 JLINK_IsHalted()  returns FALSE (0000ms, 0514ms total)
T0E24 001:780 JLINK_IsHalted() -- CPU_ReadMem(2 bytes @ 0x20000000)  returns TRUE (0003ms, 0517ms total)
T0E24 001:783 JLINK_ReadReg(R15 (PC))  returns 0x20000000 (0000ms, 0514ms total)
T0E24 001:783 JLINK_ClrBPEx(BPHandle = 0x0000000B)  returns 0x00 (0000ms, 0514ms total)
T0E24 001:783 JLINK_ReadReg(R0)  returns 0x00000000 (0000ms, 0514ms total)
T0E24 001:786 JLINK_WriteMem(0x20000188, 0x0400 Bytes, ...) - Data: 01 22 ED E7 11 68 4F F0 FF 32 E9 E7 10 B5 43 69 ... -- CPU_WriteMem(1024 bytes @ 0x20000188)  returns 0x400 (0013ms, 0527ms total)
T0E24 001:799 JLINK_WriteReg(R0, 0x08001000)  returns 0x00 (0000ms, 0527ms total)
T0E24 001:799 JLINK_WriteReg(R1, 0x00000400)  returns 0x00 (0000ms, 0527ms total)
T0E24 001:799 JLINK_WriteReg(R2, 0x20000188)  returns 0x00 (0000ms, 0527ms total)
T0E24 001:799 JLINK_WriteReg(R3, 0x00000000)  returns 0x00 (0000ms, 0527ms total)
T0E24 001:799 JLINK_WriteReg(R4, 0x00000000)  returns 0x00 (0000ms, 0527ms total)
T0E24 001:799 JLINK_WriteReg(R5, 0x00000000)  returns 0x00 (0000ms, 0527ms total)
T0E24 001:799 JLINK_WriteReg(R6, 0x00000000)  returns 0x00 (0000ms, 0527ms total)
T0E24 001:799 JLINK_WriteReg(R7, 0x00000000)  returns 0x00 (0000ms, 0527ms total)
T0E24 001:799 JLINK_WriteReg(R8, 0x00000000)  returns 0x00 (0000ms, 0527ms total)
T0E24 001:799 JLINK_WriteReg(R9, 0x20000184)  returns 0x00 (0000ms, 0527ms total)
T0E24 001:799 JLINK_WriteReg(R10, 0x00000000)  returns 0x00 (0000ms, 0527ms total)
T0E24 001:799 JLINK_WriteReg(R11, 0x00000000)  returns 0x00 (0000ms, 0527ms total)
T0E24 001:799 JLINK_WriteReg(R12, 0x00000000)  returns 0x00 (0000ms, 0527ms total)
T0E24 001:799 JLINK_WriteReg(R13 (SP), 0x20001000)  returns 0x00 (0000ms, 0527ms total)
T0E24 001:799 JLINK_WriteReg(R14, 0x20000001)  returns 0x00 (0000ms, 0527ms total)
T0E24 001:799 JLINK_WriteReg(R15 (PC), 0x20000112)  returns 0x00 (0000ms, 0527ms total)
T0E24 001:799 JLINK_WriteReg(XPSR, 0x01000000)  returns 0x00 (0000ms, 0527ms total)
T0E24 001:799 JLINK_WriteReg(MSP, 0x20001000)  returns 0x00 (0000ms, 0527ms total)
T0E24 001:799 JLINK_WriteReg(PSP, 0x20001000)  returns 0x00 (0000ms, 0527ms total)
T0E24 001:799 JLINK_WriteReg(CFBP, 0x00000000)  returns 0x00 (0000ms, 0527ms total)
T0E24 001:799 JLINK_SetBPEx(Addr = 0x20000000, Type = 0xFFFFFFF2)  returns 0x0000000C (0000ms, 0527ms total)
T0E24 001:799 JLINK_Go() -- CPU_ReadMem(4 bytes @ 0xE0001000) (0002ms, 0529ms total)
T0E24 001:801 JLINK_IsHalted()  returns FALSE (0001ms, 0530ms total)
T0E24 001:804 JLINK_IsHalted()  returns FALSE (0000ms, 0529ms total)
T0E24 001:806 JLINK_IsHalted() -- CPU_ReadMem(2 bytes @ 0x20000000)  returns TRUE (0003ms, 0532ms total)
T0E24 001:809 JLINK_ReadReg(R15 (PC))  returns 0x20000000 (0000ms, 0529ms total)
T0E24 001:809 JLINK_ClrBPEx(BPHandle = 0x0000000C)  returns 0x00 (0000ms, 0529ms total)
T0E24 001:809 JLINK_ReadReg(R0)  returns 0x00000000 (0000ms, 0529ms total)
T0E24 001:810 JLINK_WriteMem(0x20000188, 0x0400 Bytes, ...) - Data: D1 1A 91 43 11 EA C3 11 E6 D1 70 47 10 B5 88 20 ... -- CPU_WriteMem(1024 bytes @ 0x20000188)  returns 0x400 (0012ms, 0541ms total)
T0E24 001:822 JLINK_WriteReg(R0, 0x08001400)  returns 0x00 (0000ms, 0541ms total)
T0E24 001:822 JLINK_WriteReg(R1, 0x00000400)  returns 0x00 (0000ms, 0541ms total)
T0E24 001:822 JLINK_WriteReg(R2, 0x20000188)  returns 0x00 (0000ms, 0541ms total)
T0E24 001:822 JLINK_WriteReg(R3, 0x00000000)  returns 0x00 (0000ms, 0541ms total)
T0E24 001:822 JLINK_WriteReg(R4, 0x00000000)  returns 0x00 (0001ms, 0542ms total)
